 frequency       db(v(Vout))     cph(v(Vout))*360/2/pi
 1.00000000e+00 -3.10449385e-03 -4.16000035e-06 
 1.12201845e+00 -3.10449385e-03 -4.66759717e-06 
 1.25892541e+00 -3.10449385e-03 -5.23713016e-06 
 1.41253754e+00 -3.10449385e-03 -5.87615668e-06 
 1.58489319e+00 -3.10449385e-03 -6.59315624e-06 
 1.77827941e+00 -3.10449385e-03 -7.39764297e-06 
 1.99526231e+00 -3.10449385e-03 -8.30029194e-06 
 2.23872114e+00 -3.10449385e-03 -9.31308073e-06 
 2.51188643e+00 -3.10449385e-03 -1.04494484e-05 
 2.81838293e+00 -3.10449385e-03 -1.17244740e-05 
 3.16227766e+00 -3.10449385e-03 -1.31550762e-05 
 3.54813389e+00 -3.10449385e-03 -1.47602382e-05 
 3.98107171e+00 -3.10449385e-03 -1.65612597e-05 
 4.46683592e+00 -3.10449385e-03 -1.85820390e-05 
 5.01187234e+00 -3.10449385e-03 -2.08493907e-05 
 5.62341325e+00 -3.10449385e-03 -2.33934011e-05 
 6.30957344e+00 -3.10449385e-03 -2.62478278e-05 
 7.07945784e+00 -3.10449385e-03 -2.94505471e-05 
 7.94328235e+00 -3.10449385e-03 -3.30440574e-05 
 8.91250938e+00 -3.10449385e-03 -3.70760422e-05 
 1.00000000e+01 -3.10449385e-03 -4.16000035e-05 
 1.12201845e+01 -3.10449385e-03 -4.66759717e-05 
 1.25892541e+01 -3.10449385e-03 -5.23713016e-05 
 1.41253754e+01 -3.10449385e-03 -5.87615668e-05 
 1.58489319e+01 -3.10449385e-03 -6.59315624e-05 
 1.77827941e+01 -3.10449386e-03 -7.39764297e-05 
 1.99526231e+01 -3.10449386e-03 -8.30029194e-05 
 2.23872114e+01 -3.10449386e-03 -9.31308073e-05 
 2.51188643e+01 -3.10449386e-03 -1.04494484e-04 
 2.81838293e+01 -3.10449387e-03 -1.17244740e-04 
 3.16227766e+01 -3.10449387e-03 -1.31550762e-04 
 3.54813389e+01 -3.10449387e-03 -1.47602382e-04 
 3.98107171e+01 -3.10449388e-03 -1.65612597e-04 
 4.46683592e+01 -3.10449389e-03 -1.85820390e-04 
 5.01187234e+01 -3.10449390e-03 -2.08493907e-04 
 5.62341325e+01 -3.10449391e-03 -2.33934011e-04 
 6.30957344e+01 -3.10449393e-03 -2.62478278e-04 
 7.07945784e+01 -3.10449395e-03 -2.94505471e-04 
 7.94328235e+01 -3.10449398e-03 -3.30440574e-04 
 8.91250938e+01 -3.10449401e-03 -3.70760422e-04 
 1.00000000e+02 -3.10449406e-03 -4.16000035e-04 
 1.12201845e+02 -3.10449411e-03 -4.66759717e-04 
 1.25892541e+02 -3.10449418e-03 -5.23713016e-04 
 1.41253754e+02 -3.10449427e-03 -5.87615668e-04 
 1.58489319e+02 -3.10449437e-03 -6.59315624e-04 
 1.77827941e+02 -3.10449451e-03 -7.39764297e-04 
 1.99526231e+02 -3.10449468e-03 -8.30029193e-04 
 2.23872114e+02 -3.10449490e-03 -9.31308073e-04 
 2.51188643e+02 -3.10449517e-03 -1.04494484e-03 
 2.81838293e+02 -3.10449551e-03 -1.17244740e-03 
 3.16227766e+02 -3.10449594e-03 -1.31550762e-03 
 3.54813389e+02 -3.10449648e-03 -1.47602382e-03 
 3.98107171e+02 -3.10449717e-03 -1.65612597e-03 
 4.46683592e+02 -3.10449802e-03 -1.85820390e-03 
 5.01187234e+02 -3.10449911e-03 -2.08493907e-03 
 5.62341325e+02 -3.10450047e-03 -2.33934011e-03 
 6.30957344e+02 -3.10450218e-03 -2.62478277e-03 
 7.07945784e+02 -3.10450434e-03 -2.94505471e-03 
 7.94328235e+02 -3.10450705e-03 -3.30440573e-03 
 8.91250938e+02 -3.10451047e-03 -3.70760421e-03 
 1.00000000e+03 -3.10451478e-03 -4.16000035e-03 
 1.12201845e+03 -3.10452019e-03 -4.66759716e-03 
 1.25892541e+03 -3.10452702e-03 -5.23713015e-03 
 1.41253754e+03 -3.10453560e-03 -5.87615667e-03 
 1.58489319e+03 -3.10454641e-03 -6.59315622e-03 
 1.77827941e+03 -3.10456002e-03 -7.39764294e-03 
 1.99526231e+03 -3.10457716e-03 -8.30029188e-03 
 2.23872114e+03 -3.10459873e-03 -9.31308066e-03 
 2.51188643e+03 -3.10462589e-03 -1.04494483e-02 
 2.81838293e+03 -3.10466008e-03 -1.17244738e-02 
 3.16227766e+03 -3.10470312e-03 -1.31550760e-02 
 3.54813389e+03 -3.10475730e-03 -1.47602380e-02 
 3.98107171e+03 -3.10482552e-03 -1.65612593e-02 
 4.46683592e+03 -3.10491139e-03 -1.85820384e-02 
 5.01187234e+03 -3.10501951e-03 -2.08493899e-02 
 5.62341325e+03 -3.10515561e-03 -2.33934000e-02 
 6.30957344e+03 -3.10532696e-03 -2.62478262e-02 
 7.07945784e+03 -3.10554267e-03 -2.94505449e-02 
 7.94328235e+03 -3.10581424e-03 -3.30440542e-02 
 8.91250938e+03 -3.10615612e-03 -3.70760377e-02 
 1.00000000e+04 -3.10658653e-03 -4.15999972e-02 
 1.12201845e+04 -3.10712837e-03 -4.66759627e-02 
 1.25892541e+04 -3.10781053e-03 -5.23712889e-02 
 1.41253754e+04 -3.10866930e-03 -5.87615489e-02 
 1.58489319e+04 -3.10975043e-03 -6.59315370e-02 
 1.77827941e+04 -3.11111149e-03 -7.39763939e-02 
 1.99526231e+04 -3.11282496e-03 -8.30028687e-02 
 2.23872114e+04 -3.11498210e-03 -9.31307357e-02 
 2.51188643e+04 -3.11769776e-03 -1.04494383e-01 
 2.81838293e+04 -3.12111659e-03 -1.17244597e-01 
 3.16227766e+04 -3.12542062e-03 -1.31550560e-01 
 3.54813389e+04 -3.13083908e-03 -1.47602098e-01 
 3.98107171e+04 -3.13766051e-03 -1.65612195e-01 
 4.46683592e+04 -3.14624817e-03 -1.85819822e-01 
 5.01187234e+04 -3.15705934e-03 -2.08493104e-01 
 5.62341325e+04 -3.17066980e-03 -2.33932877e-01 
 6.30957344e+04 -3.18780426e-03 -2.62476675e-01 
 7.07945784e+04 -3.20937554e-03 -2.94503208e-01 
 7.94328235e+04 -3.23653156e-03 -3.30437377e-01 
 8.91250938e+04 -3.27071873e-03 -3.70755906e-01 
 1.00000000e+05 -3.31375781e-03 -4.15993656e-01 
 1.12201845e+05 -3.36793975e-03 -4.66750706e-01 
 1.25892541e+05 -3.43615015e-03 -5.23700288e-01 
 1.41253754e+05 -3.52202000e-03 -5.87597691e-01 
 1.58489319e+05 -3.63012168e-03 -6.59290230e-01 
 1.77827941e+05 -3.76621007e-03 -7.39728428e-01 
 1.99526231e+05 -3.93752862e-03 -8.29978528e-01 
 2.23872114e+05 -4.15319658e-03 -9.31236508e-01 
 2.51188643e+05 -4.42469141e-03 -1.04484376e+00 
 2.81838293e+05 -4.76645879e-03 -1.17230462e+00 
 3.16227766e+05 -5.19668034e-03 -1.31530595e+00 
 3.54813389e+05 -5.73823670e-03 -1.47573898e+00 
 3.98107171e+05 -6.41991984e-03 -1.65572366e+00 
 4.46683592e+05 -7.27795638e-03 -1.85763569e+00 
 5.01187234e+05 -8.35791982e-03 -2.08413657e+00 
 5.62341325e+05 -9.71713238e-03 -2.33820676e+00 
 6.30957344e+05 -1.14276760e-02 -2.62318225e+00 
 7.07945784e+05 -1.35801677e-02 -2.94279459e+00 
 7.94328235e+05 -1.62884801e-02 -3.30121442e+00 
 8.91250938e+05 -1.96956482e-02 -3.70309848e+00 
 1.00000000e+06 -2.39812286e-02 -4.15363959e+00 
 1.12201845e+06 -2.93704600e-02 -4.65861904e+00 
 1.25892541e+06 -3.61456228e-02 -5.22446008e+00 
 1.41253754e+06 -4.46600749e-02 -5.85828078e+00 
 1.58489319e+06 -5.53554985e-02 -6.56794317e+00 
 1.77827941e+06 -6.87829664e-02 -7.36209466e+00 
 1.99526231e+06 -8.56284441e-02 -8.25019556e+00 
 2.23872114e+06 -1.06743331e-01 -9.24252440e+00 
 2.51188643e+06 -1.33180534e-01 -1.03501497e+01 
 2.81838293e+06 -1.66236227e-01 -1.15848529e+01 
 3.16227766e+06 -2.07496983e-01 -1.29589842e+01 
 3.54813389e+06 -2.58891020e-01 -1.44852264e+01 
 3.98107171e+06 -3.22740990e-01 -1.61762418e+01 
 4.46683592e+06 -4.01813777e-01 -1.80441728e+01 
 5.01187234e+06 -4.99360182e-01 -2.00999720e+01 
 5.62341325e+06 -6.19134489e-01 -2.23525501e+01 
 6.30957344e+06 -7.65380798e-01 -2.48077505e+01 
 7.07945784e+06 -9.42771130e-01 -2.74671997e+01 
 7.94328235e+06 -1.15628073e+00 -3.03271329e+01 
 8.91250938e+06 -1.41099062e+00 -3.33773571e+01 
 1.00000000e+07 -1.71181789e+00 -3.66005611e+01 
 1.12201845e+07 -2.06318998e+00 -3.99722059e+01 
 1.25892541e+07 -2.46869782e+00 -4.34611861e+01 
 1.41253754e+07 -2.93077848e+00 -4.70313415e+01 
 1.58489319e+07 -3.45048321e+00 -5.06437271e+01 
 1.77827941e+07 -4.02737709e+00 -5.42593669e+01 
 1.99526231e+07 -4.65959184e+00 -5.78420907e+01 
 2.23872114e+07 -5.34402126e+00 -6.13610311e+01 
 2.51188643e+07 -6.07662078e+00 -6.47924525e+01 
 2.81838293e+07 -6.85275669e+00 -6.81207562e+01 
 3.16227766e+07 -7.66755167e+00 -7.13386869e+01 
 3.54813389e+07 -8.51618561e+00 -7.44469047e+01 
 3.98107171e+07 -9.39412960e+00 -7.74531504e+01 
 4.46683592e+07 -1.02973081e+01 -8.03712362e+01 
 5.01187234e+07 -1.12221971e+01 -8.32200505e+01 
 5.62341325e+07 -1.21658737e+01 -8.60227143e+01 
 6.30957344e+07 -1.31260343e+01 -8.88059722e+01 
 7.07945784e+07 -1.41010005e+01 -9.15998675e+01 
 7.94328235e+07 -1.50897328e+01 -9.44377188e+01 
 8.91250938e+07 -1.60918713e+01 -9.73563895e+01 
 1.00000000e+08 -1.71078243e+01 -1.00396799e+02 
 1.12201845e+08 -1.81389226e+01 -1.03604587e+02 
 1.25892541e+08 -1.91876466e+01 -1.07030845e+02 
 1.41253754e+08 -2.02579320e+01 -1.10732862e+02 
 1.58489319e+08 -2.13555579e+01 -1.14774939e+02 
 1.77827941e+08 -2.24886321e+01 -1.19229479e+02 
 1.99526231e+08 -2.36682303e+01 -1.24178830e+02 
 2.23872114e+08 -2.49093539e+01 -1.29718363e+02 
 2.51188643e+08 -2.62324647e+01 -1.35960772e+02 
 2.81838293e+08 -2.76658829e+01 -1.43040881e+02 
 3.16227766e+08 -2.92492903e+01 -1.51120123e+02 
 3.54813389e+08 -3.10384912e+01 -1.60390669e+02 
 3.98107171e+08 -3.31112510e+01 -1.71083138e+02 
 4.46683592e+08 -3.55731333e+01 -1.83496439e+02 
 5.01187234e+08 -3.85598813e+01 -1.98114751e+02 
 5.62341325e+08 -4.22225848e+01 -2.16005213e+02 
 6.30957344e+08 -4.66126513e+01 -2.39939671e+02 
 7.07945784e+08 -5.10256908e+01 -2.75453990e+02 
 7.94328235e+08 -5.30782951e+01 -3.18878825e+02 
 8.91250938e+08 -5.28411177e+01 -3.49308135e+02 
 1.00000000e+09 -5.24861922e+01 -3.64744462e+02 
 1.12201845e+09 -5.24739694e+01 -3.71164232e+02 
 1.25892541e+09 -5.26021867e+01 -3.72055885e+02 
 1.41253754e+09 -5.26390737e+01 -3.69726871e+02 
 1.58489319e+09 -5.24759082e+01 -3.66103893e+02 
 1.77827941e+09 -5.21362176e+01 -3.62568261e+02 
 1.99526231e+09 -5.17045655e+01 -3.59779577e+02 
 2.23872114e+09 -5.12584379e+01 -3.57855361e+02 
 2.51188643e+09 -5.08445150e+01 -3.56663308e+02 
 2.81838293e+09 -5.04830280e+01 -3.56012741e+02 
 3.16227766e+09 -5.01782905e+01 -3.55734047e+02 
 3.54813389e+09 -4.99267953e+01 -3.55698156e+02 
 3.98107171e+09 -4.97219456e+01 -3.55813558e+02 
 4.46683592e+09 -4.95564671e+01 -3.56017744e+02 
 5.01187234e+09 -4.94235043e+01 -3.56269006e+02 
 5.62341325e+09 -4.93170411e+01 -3.56540025e+02 
 6.30957344e+09 -4.92319942e+01 -3.56813256e+02 
 7.07945784e+09 -4.91641614e+01 -3.57077723e+02 
 7.94328235e+09 -4.91101153e+01 -3.57326822e+02 
 8.91250938e+09 -4.90670838e+01 -3.57556834e+02 
 1.00000000e+10 -4.90328367e+01 -3.57765918e+02 
 1.12201845e+10 -4.90055863e+01 -3.57953429e+02 
 1.25892541e+10 -4.89839030e+01 -3.58119463e+02 
 1.41253754e+10 -4.89666449e+01 -3.58264545e+02 
 1.58489319e+10 -4.89529007e+01 -3.58389421e+02 
 1.77827941e+10 -4.89419433e+01 -3.58494918e+02 
 1.99526231e+10 -4.89331921e+01 -3.58581852e+02 
 2.23872114e+10 -4.89261827e+01 -3.58650966e+02 
 2.51188643e+10 -4.89205431e+01 -3.58702887e+02 
 2.81838293e+10 -4.89159737e+01 -3.58738103e+02 
 3.16227766e+10 -4.89122315e+01 -3.58756938e+02 
 3.54813389e+10 -4.89091175e+01 -3.58759546e+02 
 3.98107171e+10 -4.89064662e+01 -3.58745897e+02 
 4.46683592e+10 -4.89041366e+01 -3.58715769e+02 
 5.01187234e+10 -4.89020047e+01 -3.58668743e+02 
 5.62341325e+10 -4.88999573e+01 -3.58604190e+02 
 6.30957344e+10 -4.88978857e+01 -3.58521269e+02 
 7.07945784e+10 -4.88956800e+01 -3.58418909e+02 
 7.94328235e+10 -4.88932237e+01 -3.58295807e+02 
 8.91250938e+10 -4.88903872e+01 -3.58150411e+02 
 1.00000000e+11 -4.88870214e+01 -3.57980912e+02 
 1.12201845e+11 -4.88829501e+01 -3.57785233e+02 
 1.25892541e+11 -4.88779615e+01 -3.57561022e+02 
 1.41253754e+11 -4.88717977e+01 -3.57305649e+02 
 1.58489319e+11 -4.88641427e+01 -3.57016209e+02 
 1.77827941e+11 -4.88546080e+01 -3.56689542e+02 
 1.99526231e+11 -4.88427161e+01 -3.56322262e+02 
 2.23872114e+11 -4.88278811e+01 -3.55910821e+02 
 2.51188643e+11 -4.88093868e+01 -3.55451594e+02 
 2.81838293e+11 -4.87863634e+01 -3.54941025e+02 
 3.16227766e+11 -4.87577628e+01 -3.54375828e+02 
 3.54813389e+11 -4.87223363e+01 -3.53753259e+02 
 3.98107171e+11 -4.86786167e+01 -3.53071492e+02 
 4.46683592e+11 -4.86249115e+01 -3.52330093e+02 
 5.01187234e+11 -4.85593145e+01 -3.51530598e+02 
 5.62341325e+11 -4.84797443e+01 -3.50677179e+02 
 6.30957344e+11 -4.83840221e+01 -3.49777345e+02 
 7.07945784e+11 -4.82699962e+01 -3.48842584e+02 
 7.94328235e+11 -4.81357189e+01 -3.47888802e+02 
 8.91250938e+11 -4.79796699e+01 -3.46936391e+02 
 1.00000000e+12 -4.78010050e+01 -3.46009720e+02 
