 frequency       db(v(Vout))     cph(v(Vout))*360/2/pi
 1.00000000e+00 -4.54774037e-02 -1.25877211e-05 
 1.12201845e+00 -4.54774037e-02 -1.41236554e-05 
 1.25892541e+00 -4.54774037e-02 -1.58470020e-05 
 1.41253754e+00 -4.54774037e-02 -1.77806287e-05 
 1.58489319e+00 -4.54774037e-02 -1.99501936e-05 
 1.77827941e+00 -4.54774037e-02 -2.23844853e-05 
 1.99526231e+00 -4.54774037e-02 -2.51158056e-05 
 2.23872114e+00 -4.54774037e-02 -2.81803974e-05 
 2.51188643e+00 -4.54774037e-02 -3.16189260e-05 
 2.81838293e+00 -4.54774037e-02 -3.54770184e-05 
 3.16227766e+00 -4.54774037e-02 -3.98058694e-05 
 3.54813389e+00 -4.54774037e-02 -4.46629200e-05 
 3.98107171e+00 -4.54774037e-02 -5.01126205e-05 
 4.46683592e+00 -4.54774037e-02 -5.62272850e-05 
 5.01187234e+00 -4.54774037e-02 -6.30880514e-05 
 5.62341325e+00 -4.54774037e-02 -7.07859579e-05 
 6.30957344e+00 -4.54774037e-02 -7.94231511e-05 
 7.07945784e+00 -4.54774037e-02 -8.91142412e-05 
 7.94328235e+00 -4.54774037e-02 -9.99878232e-05 
 8.91250938e+00 -4.54774037e-02 -1.12188183e-04 
 1.00000000e+01 -4.54774037e-02 -1.25877211e-04 
 1.12201845e+01 -4.54774037e-02 -1.41236554e-04 
 1.25892541e+01 -4.54774037e-02 -1.58470020e-04 
 1.41253754e+01 -4.54774037e-02 -1.77806287e-04 
 1.58489319e+01 -4.54774037e-02 -1.99501936e-04 
 1.77827941e+01 -4.54774038e-02 -2.23844853e-04 
 1.99526231e+01 -4.54774038e-02 -2.51158056e-04 
 2.23872114e+01 -4.54774038e-02 -2.81803974e-04 
 2.51188643e+01 -4.54774038e-02 -3.16189260e-04 
 2.81838293e+01 -4.54774039e-02 -3.54770184e-04 
 3.16227766e+01 -4.54774039e-02 -3.98058694e-04 
 3.54813389e+01 -4.54774039e-02 -4.46629200e-04 
 3.98107171e+01 -4.54774040e-02 -5.01126205e-04 
 4.46683592e+01 -4.54774041e-02 -5.62272850e-04 
 5.01187234e+01 -4.54774042e-02 -6.30880514e-04 
 5.62341325e+01 -4.54774043e-02 -7.07859579e-04 
 6.30957344e+01 -4.54774045e-02 -7.94231511e-04 
 7.07945784e+01 -4.54774047e-02 -8.91142412e-04 
 7.94328235e+01 -4.54774050e-02 -9.99878232e-04 
 8.91250938e+01 -4.54774053e-02 -1.12188183e-03 
 1.00000000e+02 -4.54774057e-02 -1.25877211e-03 
 1.12201845e+02 -4.54774062e-02 -1.41236554e-03 
 1.25892541e+02 -4.54774069e-02 -1.58470020e-03 
 1.41253754e+02 -4.54774077e-02 -1.77806287e-03 
 1.58489319e+02 -4.54774088e-02 -1.99501935e-03 
 1.77827941e+02 -4.54774101e-02 -2.23844853e-03 
 1.99526231e+02 -4.54774118e-02 -2.51158056e-03 
 2.23872114e+02 -4.54774138e-02 -2.81803974e-03 
 2.51188643e+02 -4.54774165e-02 -3.16189259e-03 
 2.81838293e+02 -4.54774198e-02 -3.54770184e-03 
 3.16227766e+02 -4.54774239e-02 -3.98058693e-03 
 3.54813389e+02 -4.54774292e-02 -4.46629199e-03 
 3.98107171e+02 -4.54774358e-02 -5.01126204e-03 
 4.46683592e+02 -4.54774441e-02 -5.62272848e-03 
 5.01187234e+02 -4.54774546e-02 -6.30880512e-03 
 5.62341325e+02 -4.54774677e-02 -7.07859576e-03 
 6.30957344e+02 -4.54774843e-02 -7.94231506e-03 
 7.07945784e+02 -4.54775052e-02 -8.91142405e-03 
 7.94328235e+02 -4.54775315e-02 -9.99878222e-03 
 8.91250938e+02 -4.54775646e-02 -1.12188181e-02 
 1.00000000e+03 -4.54776062e-02 -1.25877210e-02 
 1.12201845e+03 -4.54776587e-02 -1.41236552e-02 
 1.25892541e+03 -4.54777247e-02 -1.58470016e-02 
 1.41253754e+03 -4.54778078e-02 -1.77806282e-02 
 1.58489319e+03 -4.54779125e-02 -1.99501928e-02 
 1.77827941e+03 -4.54780442e-02 -2.23844843e-02 
 1.99526231e+03 -4.54782101e-02 -2.51158041e-02 
 2.23872114e+03 -4.54784189e-02 -2.81803953e-02 
 2.51188643e+03 -4.54786817e-02 -3.16189229e-02 
 2.81838293e+03 -4.54790127e-02 -3.54770141e-02 
 3.16227766e+03 -4.54794293e-02 -3.98058633e-02 
 3.54813389e+03 -4.54799537e-02 -4.46629114e-02 
 3.98107171e+03 -4.54806140e-02 -5.01126084e-02 
 4.46683592e+03 -4.54814452e-02 -5.62272679e-02 
 5.01187234e+03 -4.54824917e-02 -6.30880272e-02 
 5.62341325e+03 -4.54838091e-02 -7.07859237e-02 
 6.30957344e+03 -4.54854676e-02 -7.94231028e-02 
 7.07945784e+03 -4.54875555e-02 -8.91141730e-02 
 7.94328235e+03 -4.54901841e-02 -9.99877268e-02 
 8.91250938e+03 -4.54934943e-02 -1.12188047e-01 
 1.00000000e+04 -4.54976603e-02 -1.25877019e-01 
 1.12201845e+04 -4.55029050e-02 -1.41236283e-01 
 1.25892541e+04 -4.55095076e-02 -1.58469636e-01 
 1.41253754e+04 -4.55178200e-02 -1.77805745e-01 
 1.58489319e+04 -4.55282844e-02 -1.99501170e-01 
 1.77827941e+04 -4.55414583e-02 -2.23843772e-01 
 1.99526231e+04 -4.55580433e-02 -2.51156528e-01 
 2.23872114e+04 -4.55789223e-02 -2.81801816e-01 
 2.51188643e+04 -4.56052076e-02 -3.16186211e-01 
 2.81838293e+04 -4.56382983e-02 -3.54765878e-01 
 3.16227766e+04 -4.56799568e-02 -3.98052611e-01 
 3.54813389e+04 -4.57324011e-02 -4.46620608e-01 
 3.98107171e+04 -4.57984237e-02 -5.01114069e-01 
 4.46683592e+04 -4.58815398e-02 -5.62255707e-01 
 5.01187234e+04 -4.59861745e-02 -6.30856300e-01 
 5.62341325e+04 -4.61178982e-02 -7.07825376e-01 
 6.30957344e+04 -4.62837229e-02 -7.94183199e-01 
 7.07945784e+04 -4.64924758e-02 -8.91074172e-01 
 7.94328235e+04 -4.67552645e-02 -9.99781843e-01 
 8.91250938e+04 -4.70860733e-02 -1.12174568e+00 
 1.00000000e+05 -4.75025022e-02 -1.25857981e+00 
 1.12201845e+05 -4.80266971e-02 -1.41209393e+00 
 1.25892541e+05 -4.86865303e-02 -1.58431658e+00 
 1.41253754e+05 -4.95170684e-02 -1.77752105e+00 
 1.58489319e+05 -5.05624278e-02 -1.99425412e+00 
 1.77827941e+05 -5.18780995e-02 -2.23736780e+00 
 1.99526231e+05 -5.35338663e-02 -2.51005434e+00 
 2.23872114e+05 -5.56174557e-02 -2.81588452e+00 
 2.51188643e+05 -5.82391194e-02 -3.15884936e+00 
 2.81838293e+05 -6.15373492e-02 -3.54340512e+00 
 3.16227766e+05 -6.56860168e-02 -3.97452114e+00 
 3.54813389e+05 -7.09032528e-02 -4.45773001e+00 
 3.98107171e+05 -7.74624640e-02 -4.99917888e+00 
 4.46683592e+05 -8.57059640e-02 -5.60568003e+00 
 5.01187234e+05 -9.60617174e-02 -6.28475802e+00 
 5.62341325e+05 -1.09063831e-01 -7.04468943e+00 
 6.30957344e+05 -1.25377377e-01 -7.89452921e+00 
 7.07945784e+05 -1.45828170e-01 -8.84411586e+00 
 7.94328235e+05 -1.71438032e-01 -9.90404414e+00 
 8.91250938e+05 -2.03465709e-01 -1.10855911e+01 
 1.00000000e+06 -2.43453240e-01 -1.24005768e+01 
 1.12201845e+06 -2.93276696e-01 -1.38611361e+01 
 1.25892541e+06 -3.55198853e-01 -1.54793767e+01 
 1.41253754e+06 -4.31919629e-01 -1.72668935e+01 
 1.58489319e+06 -5.26617536e-01 -1.92341149e+01 
 1.77827941e+06 -6.42972518e-01 -2.13894657e+01 
 1.99526231e+06 -7.85157450e-01 -2.37383532e+01 
 2.23872114e+06 -9.57783526e-01 -2.62820173e+01 
 2.51188643e+06 -1.16578449e+00 -2.90163378e+01 
 2.81838293e+06 -1.41422900e+00 -3.19307514e+01 
 3.16227766e+06 -1.70805967e+00 -3.50074823e+01 
 3.54813389e+06 -2.05177259e+00 -3.82213206e+01 
 3.98107171e+06 -2.44906965e+00 -4.15401468e+01 
 4.46683592e+06 -2.90253245e+00 -4.49263033e+01 
 5.01187234e+06 -3.41337396e+00 -4.83387434e+01 
 5.62341325e+06 -3.98131599e+00 -5.17357097e+01 
 6.30957344e+06 -4.60461838e+00 -5.50775491e+01 
 7.07945784e+06 -5.28025349e+00 -5.83292381e+01 
 7.94328235e+06 -6.00419058e+00 -6.14622714e+01 
 8.91250938e+06 -6.77173693e+00 -6.44557290e+01 
 1.00000000e+07 -7.57788083e+00 -6.72965226e+01 
 1.12201845e+07 -8.41759317e+00 -6.99789687e+01 
 1.25892541e+07 -9.28606250e+00 -7.25039064e+01 
 1.41253754e+07 -1.01788558e+01 -7.48775903e+01 
 1.58489319e+07 -1.10920111e+01 -7.71105441e+01 
 1.77827941e+07 -1.20220743e+01 -7.92165079e+01 
 1.99526231e+07 -1.29660959e+01 -8.12115497e+01 
 2.23872114e+07 -1.39216025e+01 -8.31133700e+01 
 2.51188643e+07 -1.48865530e+01 -8.49407990e+01 
 2.81838293e+07 -1.58592903e+01 -8.67134680e+01 
 3.16227766e+07 -1.68384925e+01 -8.84516311e+01 
 3.54813389e+07 -1.78231279e+01 -9.01761166e+01 
 3.98107171e+07 -1.88124171e+01 -9.19083884e+01 
 4.46683592e+07 -1.98058011e+01 -9.36707097e+01 
 5.01187234e+07 -2.08029190e+01 -9.54864056e+01 
 5.62341325e+07 -2.18035971e+01 -9.73802347e+01 
 6.30957344e+07 -2.28078532e+01 -9.93788791e+01 
 7.07945784e+07 -2.38159238e+01 -1.01511561e+02 
 7.94328235e+07 -2.48283275e+01 -1.03810760e+02 
 8.91250938e+07 -2.58459706e+01 -1.06312943e+02 
 1.00000000e+08 -2.68702946e+01 -1.09059135e+02 
 1.12201845e+08 -2.79034274e+01 -1.12095216e+02 
 1.25892541e+08 -2.89482752e+01 -1.15472068e+02 
 1.41253754e+08 -3.00085153e+01 -1.19246213e+02 
 1.58489319e+08 -3.10885343e+01 -1.23481634e+02 
 1.77827941e+08 -3.21933956e+01 -1.28253059e+02 
 1.99526231e+08 -3.33288598e+01 -1.33650672e+02 
 2.23872114e+08 -3.45014184e+01 -1.39786422e+02 
 2.51188643e+08 -3.57182583e+01 -1.46802246e+02 
 2.81838293e+08 -3.69869548e+01 -1.54880245e+02 
 3.16227766e+08 -3.83144539e+01 -1.64254375e+02 
 3.54813389e+08 -3.97045593e+01 -1.75221230e+02 
 3.98107171e+08 -4.11527321e+01 -1.88141203e+02 
 4.46683592e+08 -4.26370877e+01 -2.03406040e+02 
 5.01187234e+08 -4.41073038e+01 -2.21323175e+02 
 5.62341325e+08 -4.54830338e+01 -2.41861493e+02 
 6.30957344e+08 -4.66861220e+01 -2.64321992e+02 
 7.07945784e+08 -4.77100818e+01 -2.87263432e+02 
 7.94328235e+08 -4.86592782e+01 -3.08947099e+02 
 8.91250938e+08 -4.96934175e+01 -3.27901526e+02 
 1.00000000e+09 -5.09314446e+01 -3.43068092e+02 
 1.12201845e+09 -5.23921586e+01 -3.53622940e+02 
 1.25892541e+09 -5.39644841e+01 -3.58860423e+02 
 1.41253754e+09 -5.53815288e+01 -3.58516630e+02 
 1.58489319e+09 -5.62786230e+01 -3.53733874e+02 
 1.77827941e+09 -5.64601800e+01 -3.47431667e+02 
 1.99526231e+09 -5.60912686e+01 -3.42397568e+02 
 2.23872114e+09 -5.54817274e+01 -3.39562388e+02 
 2.51188643e+09 -5.48445761e+01 -3.38569027e+02 
 2.81838293e+09 -5.42723183e+01 -3.38784833e+02 
 3.16227766e+09 -5.37904489e+01 -3.39703195e+02 
 3.54813389e+09 -5.33967117e+01 -3.40989230e+02 
 3.98107171e+09 -5.30796984e+01 -3.42436393e+02 
 4.46683592e+09 -5.28263494e+01 -3.43921380e+02 
 5.01187234e+09 -5.26246419e+01 -3.45372554e+02 
 5.62341325e+09 -5.24643510e+01 -3.46749945e+02 
 6.30957344e+09 -5.23370850e+01 -3.48032937e+02 
 7.07945784e+09 -5.22360749e+01 -3.49212696e+02 
 7.94328235e+09 -5.21559090e+01 -3.50287499e+02 
 8.91250938e+09 -5.20922797e+01 -3.51259815e+02 
 1.00000000e+10 -5.20417659e+01 -3.52134485e+02 
 1.12201845e+10 -5.20016530e+01 -3.52917563e+02 
 1.25892541e+10 -5.19697872e+01 -3.53615598e+02 
 1.41253754e+10 -5.19444597e+01 -3.54235181e+02 
 1.58489319e+10 -5.19243137e+01 -3.54782671e+02 
 1.77827941e+10 -5.19082709e+01 -3.55264029e+02 
 1.99526231e+10 -5.18954737e+01 -3.55684729e+02 
 2.23872114e+10 -5.18852383e+01 -3.56049713e+02 
 2.51188643e+10 -5.18770181e+01 -3.56363373e+02 
 2.81838293e+10 -5.18703746e+01 -3.56629557e+02 
 3.16227766e+10 -5.18649533e+01 -3.56851578e+02 
 3.54813389e+10 -5.18604654e+01 -3.57032230e+02 
 3.98107171e+10 -5.18566715e+01 -3.57173811e+02 
 4.46683592e+10 -5.18533696e+01 -3.57278134e+02 
 5.01187234e+10 -5.18503841e+01 -3.57346550e+02 
 5.62341325e+10 -5.18475560e+01 -3.57379958e+02 
 6.30957344e+10 -5.18447353e+01 -3.57378818e+02 
 7.07945784e+10 -5.18417725e+01 -3.57343155e+02 
 7.94328235e+10 -5.18385109e+01 -3.57272570e+02 
 8.91250938e+10 -5.18347786e+01 -3.57166237e+02 
 1.00000000e+11 -5.18303800e+01 -3.57022911e+02 
 1.12201845e+11 -5.18250853e+01 -3.56840928e+02 
 1.25892541e+11 -5.18186199e+01 -3.56618208e+02 
 1.41253754e+11 -5.18106511e+01 -3.56352272e+02 
 1.58489319e+11 -5.18007726e+01 -3.56040257e+02 
 1.77827941e+11 -5.17884870e+01 -3.55678956e+02 
 1.99526231e+11 -5.17731847e+01 -3.55264877e+02 
 2.23872114e+11 -5.17541207e+01 -3.54794335e+02 
 2.51188643e+11 -5.17303888e+01 -3.54263592e+02 
 2.81838293e+11 -5.17008941e+01 -3.53669053e+02 
 3.16227766e+11 -5.16643269e+01 -3.53007547e+02 
 3.54813389e+11 -5.16191393e+01 -3.52276696e+02 
 3.98107171e+11 -5.15635327e+01 -3.51475400e+02 
 4.46683592e+11 -5.14954605e+01 -3.50604438e+02 
 5.01187234e+11 -5.14126577e+01 -3.49667169e+02 
 5.62341325e+11 -5.13127079e+01 -3.48670299e+02 
 6.30957344e+11 -5.11931583e+01 -3.47624628e+02 
 7.07945784e+11 -5.10516904e+01 -3.46545640e+02 
 7.94328235e+11 -5.08863438e+01 -3.45453754e+02 
 8.91250938e+11 -5.06957770e+01 -3.44374043e+02 
 1.00000000e+12 -5.04795305e+01 -3.43335248e+02 
